# Hz S DB R 50
! CMT, C2409, 17056202, 24.2.4/2
! Date: 15/03/2025 6:42:06 pm
! Data: Format (Calibration Info)
! Freq	S11:dB/Ang(F2)	S21:dB/Ang(F2)	S12:dB/Ang(F2)	S22:dB/Ang(F2)
1.00000000000E+05	-6.44376861801E+00	-3.92165051428E+00	2.42084170287E+01	-1.67227143830E+02	-4.55657692914E+01	1.89791646685E+01	-1.36370305448E+01	1.53829123680E+02
9.09990000000E+06	-9.08520641079E+00	-4.37044469518E+01	2.33508362116E+01	1.68359047360E+02	-3.37767080783E+01	3.66519582496E+01	-1.30547625436E+01	-1.41752119067E+02
1.80998000000E+07	-1.23796438348E+01	-6.51860756967E+01	2.20759509866E+01	1.67487881255E+02	-3.14985096455E+01	2.40440026186E+01	-1.04036443438E+01	-1.58043290893E+02
2.70997000000E+07	-1.47424553801E+01	-7.71072294959E+01	2.14968765431E+01	1.69277068350E+02	-3.08096259153E+01	1.74443560124E+01	-9.80789665034E+00	-1.67362819937E+02
3.60996000000E+07	-1.63449977853E+01	-8.53973794049E+01	2.12744453225E+01	1.70738088592E+02	-3.04520983895E+01	1.34998590867E+01	-9.69661832583E+00	-1.73327606324E+02
4.50995000000E+07	-1.75220858689E+01	-9.20907958868E+01	2.11815143219E+01	1.71611137627E+02	-3.02459691348E+01	1.07294251232E+01	-9.71897345539E+00	-1.77451687172E+02
5.40994000000E+07	-1.83350912603E+01	-9.75767050323E+01	2.11606351306E+01	1.72116701300E+02	-3.00908771720E+01	8.63328692581E+00	-9.81292829000E+00	1.79776768853E+02
6.30993000000E+07	-1.89368906218E+01	-1.02437441287E+02	2.11758795995E+01	1.72215851465E+02	-2.99692582844E+01	6.87426463485E+00	-9.88902943021E+00	1.77796847250E+02
7.20992000000E+07	-1.93273086775E+01	-1.06735235348E+02	2.11972546334E+01	1.72101184984E+02	-2.98709132518E+01	5.35457382877E+00	-9.95682682043E+00	1.76416079788E+02
8.10991000000E+07	-1.96693101194E+01	-1.10316902544E+02	2.12350037658E+01	1.71809427513E+02	-2.97928610835E+01	3.92631471909E+00	-9.99887009990E+00	1.74980372035E+02
9.00990000000E+07	-1.98713500727E+01	-1.13504131066E+02	2.12787849085E+01	1.71399216197E+02	-2.97395374657E+01	2.72410140001E+00	-1.00555188210E+01	1.73717281587E+02
9.90989000000E+07	-2.00210649497E+01	-1.16499979109E+02	2.13199516486E+01	1.70883239525E+02	-2.96793605511E+01	1.60581282358E+00	-1.01402326007E+01	1.72268110475E+02
1.08098800000E+08	-2.01019258044E+01	-1.19412129136E+02	2.13603687209E+01	1.70217816739E+02	-2.96158996789E+01	5.53151349523E-01	-1.02615689938E+01	1.70922121680E+02
1.17098700000E+08	-2.02009131652E+01	-1.21999768395E+02	2.14094368778E+01	1.69565021093E+02	-2.95843817323E+01	-4.26160703397E-01	-1.04095105893E+01	1.70016855322E+02
1.26098600000E+08	-2.02394899346E+01	-1.24422234280E+02	2.14398421537E+01	1.68881541708E+02	-2.95275877137E+01	-1.40766002723E+00	-1.05178973321E+01	1.69380912221E+02
1.35098500000E+08	-2.02594544974E+01	-1.26677718749E+02	2.14750745487E+01	1.68024092103E+02	-2.94915024370E+01	-2.42204782639E+00	-1.05845364678E+01	1.68870038505E+02
1.44098400000E+08	-2.02481925566E+01	-1.28751321999E+02	2.15008458340E+01	1.67257670260E+02	-2.94577692714E+01	-3.33147420817E+00	-1.06012822856E+01	1.68392866189E+02
1.53098300000E+08	-2.02005805852E+01	-1.30686210567E+02	2.15278254920E+01	1.66418222481E+02	-2.94210001574E+01	-4.38189037807E+00	-1.06028851579E+01	1.67615992298E+02
1.62098200000E+08	-2.01750606482E+01	-1.32664489453E+02	2.15583965119E+01	1.65573905742E+02	-2.94078899342E+01	-5.20942171474E+00	-1.06675818850E+01	1.66669191178E+02
1.71098100000E+08	-2.01248034845E+01	-1.34537053381E+02	2.15854676316E+01	1.64701248126E+02	-2.93746762962E+01	-6.08105938527E+00	-1.07472586266E+01	1.65890260485E+02
1.80098000000E+08	-2.00768535083E+01	-1.36170545481E+02	2.16070697529E+01	1.63856441728E+02	-2.93471968779E+01	-6.90990030006E+00	-1.08740577072E+01	1.65257579818E+02
1.89097900000E+08	-1.99895386117E+01	-1.37594206019E+02	2.16287946736E+01	1.62958380018E+02	-2.93255730909E+01	-7.75052421577E+00	-1.09783181498E+01	1.64832983313E+02
1.98097800000E+08	-1.99049412443E+01	-1.39010275214E+02	2.16528544696E+01	1.62031231566E+02	-2.92983830572E+01	-8.53267016496E+00	-1.10419924254E+01	1.64609212308E+02
2.07097700000E+08	-1.98383100749E+01	-1.40440350341E+02	2.16640657573E+01	1.61141582434E+02	-2.92801912023E+01	-9.43727358650E+00	-1.10418899002E+01	1.64227116401E+02
2.16097600000E+08	-1.97520818239E+01	-1.41872859770E+02	2.16857977659E+01	1.60202657301E+02	-2.92657472339E+01	-1.02599296335E+01	-1.10442076063E+01	1.63573760533E+02
2.25097500000E+08	-1.96746758622E+01	-1.43006139902E+02	2.17068661300E+01	1.59312772638E+02	-2.92545465489E+01	-1.11196194111E+01	-1.10572092945E+01	1.62826204009E+02
2.34097400000E+08	-1.96474067778E+01	-1.44271021091E+02	2.17197453607E+01	1.58317753297E+02	-2.92319622303E+01	-1.18860469066E+01	-1.11388285564E+01	1.62248356535E+02
2.43097300000E+08	-1.95974623570E+01	-1.45314402176E+02	2.17329497454E+01	1.57358113331E+02	-2.92131940145E+01	-1.27216838568E+01	-1.12272400883E+01	1.61813364451E+02
2.52097200000E+08	-1.95757791685E+01	-1.46211812873E+02	2.17388952000E+01	1.56451836124E+02	-2.92066949141E+01	-1.35106794204E+01	-1.13310634451E+01	1.61734032285E+02
2.61097100000E+08	-1.95264195653E+01	-1.47283409678E+02	2.17485270999E+01	1.55523270672E+02	-2.91955723174E+01	-1.42925491191E+01	-1.13756413597E+01	1.61799982268E+02
2.70097000000E+08	-1.95074278877E+01	-1.48039401984E+02	2.17518276707E+01	1.54579929211E+02	-2.91873099035E+01	-1.51020434104E+01	-1.13677549903E+01	1.61593712883E+02
2.79096900000E+08	-1.94630922890E+01	-1.48925639324E+02	2.17634206817E+01	1.53664841177E+02	-2.91894919139E+01	-1.59154519690E+01	-1.13609253384E+01	1.61095306357E+02
2.88096800000E+08	-1.94263450782E+01	-1.49742437276E+02	2.17651922721E+01	1.52660873464E+02	-2.91843115572E+01	-1.66868889345E+01	-1.13767134325E+01	1.60238553569E+02
2.97096700000E+08	-1.93971300949E+01	-1.50483756368E+02	2.17660325097E+01	1.51785876106E+02	-2.91770733936E+01	-1.73937436576E+01	-1.14110817210E+01	1.59539056397E+02
3.06096600000E+08	-1.93259462540E+01	-1.51347837576E+02	2.17736339064E+01	1.50865849244E+02	-2.91744837271E+01	-1.81463810430E+01	-1.14775884204E+01	1.58990839619E+02
3.15096500000E+08	-1.92645041796E+01	-1.52144686072E+02	2.17732254659E+01	1.49925868014E+02	-2.91563646483E+01	-1.89094815402E+01	-1.15401765805E+01	1.58869935221E+02
3.24096400000E+08	-1.91909374545E+01	-1.52846694366E+02	2.17784621838E+01	1.48988516188E+02	-2.91487559817E+01	-1.96234906788E+01	-1.15799120258E+01	1.58929055628E+02
3.33096300000E+08	-1.91169967719E+01	-1.53618672777E+02	2.17808759382E+01	1.48083037825E+02	-2.91431705180E+01	-2.04099466962E+01	-1.15660718678E+01	1.58814656073E+02
3.42096200000E+08	-1.90446656267E+01	-1.54289276121E+02	2.17874463324E+01	1.47110912517E+02	-2.91386714232E+01	-2.11402168403E+01	-1.15615901141E+01	1.58486856676E+02
3.51096100000E+08	-1.89942753553E+01	-1.54867809691E+02	2.17956363694E+01	1.46209178078E+02	-2.91387220671E+01	-2.18986128789E+01	-1.15857501605E+01	1.57645934546E+02
3.60096000000E+08	-1.89200398934E+01	-1.55660792801E+02	2.17842546029E+01	1.45255706849E+02	-2.91414525736E+01	-2.26162634829E+01	-1.16476970322E+01	1.56874993576E+02
3.69095900000E+08	-1.88413808362E+01	-1.56164763391E+02	2.17938746086E+01	1.44369070563E+02	-2.91195600512E+01	-2.32980743776E+01	-1.17386979615E+01	1.56127608447E+02
3.78095800000E+08	-1.87655718246E+01	-1.56920189440E+02	2.17907981456E+01	1.43389280671E+02	-2.91179730460E+01	-2.39349208544E+01	-1.18108051265E+01	1.55940786177E+02
3.87095700000E+08	-1.86990496397E+01	-1.57403175406E+02	2.17924548132E+01	1.42520412644E+02	-2.91116114265E+01	-2.47082793904E+01	-1.18231838266E+01	1.55737500547E+02
3.96095600000E+08	-1.86093165733E+01	-1.58068194719E+02	2.17913504231E+01	1.41611903057E+02	-2.91165056620E+01	-2.54167158766E+01	-1.18002471254E+01	1.55599757414E+02
4.05095500000E+08	-1.85482650714E+01	-1.58592260470E+02	2.17881263578E+01	1.40643053605E+02	-2.91137728584E+01	-2.61870623542E+01	-1.17491319344E+01	1.55256162882E+02
4.14095400000E+08	-1.84878683370E+01	-1.59182206530E+02	2.17925053050E+01	1.39708205060E+02	-2.91106538288E+01	-2.68908008700E+01	-1.17593604775E+01	1.54675566464E+02
4.23095300000E+08	-1.84354066547E+01	-1.59827807699E+02	2.17934028789E+01	1.38809239072E+02	-2.91145770242E+01	-2.75615214973E+01	-1.18309210759E+01	1.53968144460E+02
4.32095200000E+08	-1.83725883816E+01	-1.60426760350E+02	2.17904214279E+01	1.37905910935E+02	-2.91130778683E+01	-2.82284583899E+01	-1.19089903004E+01	1.53491969776E+02
4.41095100000E+08	-1.83073600183E+01	-1.60957977986E+02	2.17850815185E+01	1.36991309109E+02	-2.90946195273E+01	-2.89097272500E+01	-1.19948898241E+01	1.53193401866E+02
4.50095000000E+08	-1.82477685506E+01	-1.61680934997E+02	2.17895135764E+01	1.36032621849E+02	-2.90986058702E+01	-2.96831661579E+01	-1.20272401219E+01	1.52999906168E+02
4.59094900000E+08	-1.81726464706E+01	-1.62282612925E+02	2.17823488239E+01	1.35139110727E+02	-2.90833622629E+01	-3.03904267712E+01	-1.20163173162E+01	1.52838537547E+02
4.68094800000E+08	-1.81034947933E+01	-1.62908921978E+02	2.17824805149E+01	1.34227787444E+02	-2.90921039010E+01	-3.12096094275E+01	-1.19759480099E+01	1.52372950339E+02
4.77094700000E+08	-1.80093561451E+01	-1.63517047050E+02	2.17814160471E+01	1.33275478468E+02	-2.90895096508E+01	-3.18361196928E+01	-1.19582261949E+01	1.51699906265E+02
4.86094600000E+08	-1.79746838263E+01	-1.64040623694E+02	2.17714450092E+01	1.32409131950E+02	-2.90932389152E+01	-3.25378347684E+01	-1.19973978397E+01	1.51125369301E+02
4.95094500000E+08	-1.79214388731E+01	-1.64488760899E+02	2.17746379151E+01	1.31497585108E+02	-2.90914060162E+01	-3.31977853541E+01	-1.20694124112E+01	1.50664582533E+02
5.04094400000E+08	-1.78640372086E+01	-1.65145001844E+02	2.17747804099E+01	1.30581505507E+02	-2.90881160503E+01	-3.38742696251E+01	-1.21739831012E+01	1.50574331877E+02
5.13094300000E+08	-1.78046718094E+01	-1.65519233839E+02	2.17689757334E+01	1.29642533993E+02	-2.90760854263E+01	-3.45908210586E+01	-1.22384051201E+01	1.50436271476E+02
5.22094200000E+08	-1.77278601656E+01	-1.66111467596E+02	2.17672605279E+01	1.28728514205E+02	-2.90866798710E+01	-3.52937405518E+01	-1.22418182225E+01	1.50337390285E+02
5.31094100000E+08	-1.76685937713E+01	-1.66768664362E+02	2.17643732659E+01	1.27797911046E+02	-2.90826330356E+01	-3.60188755222E+01	-1.22269846455E+01	1.49830764058E+02
5.40094000000E+08	-1.76017285039E+01	-1.67282699840E+02	2.17658916517E+01	1.26906026209E+02	-2.90849565143E+01	-3.67229995533E+01	-1.22093529595E+01	1.49024198740E+02
5.49093900000E+08	-1.75511288329E+01	-1.67829831016E+02	2.17619740397E+01	1.25980183537E+02	-2.90986587515E+01	-3.74258536389E+01	-1.22422026820E+01	1.48220278753E+02
5.58093800000E+08	-1.74740463501E+01	-1.68426960079E+02	2.17493029594E+01	1.25051997583E+02	-2.90901174566E+01	-3.80355395424E+01	-1.22956401864E+01	1.47798387720E+02
5.67093700000E+08	-1.74114601871E+01	-1.68910036150E+02	2.17564843435E+01	1.24163240398E+02	-2.90819856237E+01	-3.86901624511E+01	-1.23628017215E+01	1.47590356707E+02
5.76093600000E+08	-1.73342297762E+01	-1.69362429223E+02	2.17542417168E+01	1.23244748047E+02	-2.90779645016E+01	-3.93944719093E+01	-1.24083591857E+01	1.47625114031E+02
5.85093500000E+08	-1.72643028372E+01	-1.69937197568E+02	2.17424745072E+01	1.22322668731E+02	-2.90784782066E+01	-4.00562223176E+01	-1.24131007794E+01	1.47603554067E+02
5.94093400000E+08	-1.72213926976E+01	-1.70428809567E+02	2.17340032447E+01	1.21432312496E+02	-2.90872961733E+01	-4.07737209694E+01	-1.23986388291E+01	1.47201145264E+02
6.03093300000E+08	-1.71508439763E+01	-1.71019556430E+02	2.17333678000E+01	1.20529973217E+02	-2.90847560883E+01	-4.15275168729E+01	-1.24121527670E+01	1.46575772610E+02
6.12093200000E+08	-1.70832590897E+01	-1.71486745533E+02	2.17272718520E+01	1.19615806202E+02	-2.90813258405E+01	-4.21832232031E+01	-1.24375585830E+01	1.45569320571E+02
6.21093100000E+08	-1.70123063518E+01	-1.72063925511E+02	2.17204865096E+01	1.18698621510E+02	-2.90915091366E+01	-4.28297772231E+01	-1.25079397010E+01	1.45046555118E+02
6.30093000000E+08	-1.69501028883E+01	-1.72614094499E+02	2.17186870793E+01	1.17825316525E+02	-2.90877754415E+01	-4.34638079438E+01	-1.25740183987E+01	1.44752079152E+02
6.39092900000E+08	-1.68882644051E+01	-1.73096608909E+02	2.17111265953E+01	1.16921313954E+02	-2.90917316010E+01	-4.41673729461E+01	-1.26033555999E+01	1.44661809033E+02
6.48092800000E+08	-1.68012847034E+01	-1.73429141991E+02	2.17114229599E+01	1.16034396413E+02	-2.90864534144E+01	-4.48840716206E+01	-1.25870588965E+01	1.44623605106E+02
6.57092700000E+08	-1.67542990480E+01	-1.74144742111E+02	2.16999473019E+01	1.15094784346E+02	-2.90767129048E+01	-4.54993940497E+01	-1.25777397354E+01	1.44411448180E+02
6.66092600000E+08	-1.66786842406E+01	-1.74690981198E+02	2.16948281729E+01	1.14202957148E+02	-2.90862451700E+01	-4.62559607657E+01	-1.25896655269E+01	1.43818212919E+02
6.75092500000E+08	-1.66243746468E+01	-1.75203981861E+02	2.16852810675E+01	1.13343253034E+02	-2.90859364210E+01	-4.69071097455E+01	-1.26242598078E+01	1.43025790281E+02
6.84092400000E+08	-1.65647209286E+01	-1.75853919239E+02	2.16859783427E+01	1.12392777462E+02	-2.91013367516E+01	-4.75830486315E+01	-1.27057833112E+01	1.42399965766E+02
6.93092300000E+08	-1.64959106899E+01	-1.76437178037E+02	2.16792352793E+01	1.11530745651E+02	-2.90877892296E+01	-4.81683846530E+01	-1.27894761269E+01	1.42002203851E+02
7.02092200000E+08	-1.64399523445E+01	-1.76991815694E+02	2.16773733688E+01	1.10633107732E+02	-2.90909705347E+01	-4.88698735799E+01	-1.28473563347E+01	1.41855590648E+02
7.11092100000E+08	-1.63803968101E+01	-1.77619856139E+02	2.16705161560E+01	1.09769114984E+02	-2.90864060892E+01	-4.95007994884E+01	-1.28499558756E+01	1.41804524679E+02
7.20092000000E+08	-1.63173797666E+01	-1.78142363484E+02	2.16630185853E+01	1.08808212964E+02	-2.90806815967E+01	-5.02441375458E+01	-1.28114919774E+01	1.41422695614E+02
7.29091900000E+08	-1.62523199494E+01	-1.78693873890E+02	2.16544505958E+01	1.07898685819E+02	-2.90821842335E+01	-5.09314126504E+01	-1.27869002440E+01	1.41027671725E+02
7.38091800000E+08	-1.61674883075E+01	-1.79264041842E+02	2.16536148872E+01	1.07046821160E+02	-2.90976768806E+01	-5.15474326135E+01	-1.28171422904E+01	1.40486864066E+02
7.47091700000E+08	-1.61034720438E+01	-1.79887827578E+02	2.16463915476E+01	1.06135320545E+02	-2.90922189000E+01	-5.22542433230E+01	-1.28983086999E+01	1.39832947119E+02
7.56091600000E+08	-1.60642138431E+01	1.79581817503E+02	2.16358604003E+01	1.05221630218E+02	-2.90959264270E+01	-5.28094928329E+01	-1.30057991498E+01	1.39549411143E+02
7.65091500000E+08	-1.60121658752E+01	1.78996858238E+02	2.16272822856E+01	1.04329988279E+02	-2.90897422773E+01	-5.35653347955E+01	-1.30667020917E+01	1.39418666316E+02
7.74091400000E+08	-1.59417915452E+01	1.78454464133E+02	2.16294051048E+01	1.03447238123E+02	-2.90880249250E+01	-5.41520908373E+01	-1.31011015200E+01	1.39179391957E+02
7.83091300000E+08	-1.58751824458E+01	1.77857937710E+02	2.16247911232E+01	1.02613129896E+02	-2.90913497903E+01	-5.48142879373E+01	-1.30992261410E+01	1.38965018924E+02
7.92091200000E+08	-1.58183289123E+01	1.77385881299E+02	2.16147758608E+01	1.01676919109E+02	-2.90972772298E+01	-5.56613928726E+01	-1.30781536172E+01	1.38207179136E+02
8.01091100000E+08	-1.57600843862E+01	1.76756126386E+02	2.16133252105E+01	1.00829448858E+02	-2.90887299237E+01	-5.61958140389E+01	-1.30816314053E+01	1.37660508102E+02
8.10091000000E+08	-1.57109795620E+01	1.76132441247E+02	2.16045982749E+01	9.98897705294E+01	-2.90935474773E+01	-5.68802833483E+01	-1.31251085371E+01	1.37053609587E+02
8.19090900000E+08	-1.56390130477E+01	1.75468626100E+02	2.16015753232E+01	9.89789088391E+01	-2.90985019446E+01	-5.74489947765E+01	-1.32072608130E+01	1.36823112854E+02
8.28090800000E+08	-1.55850025024E+01	1.75047484722E+02	2.15930495094E+01	9.81148184061E+01	-2.90908357119E+01	-5.80817255571E+01	-1.32875616661E+01	1.36821457900E+02
8.37090700000E+08	-1.55219381209E+01	1.74413616521E+02	2.15819534613E+01	9.72394039289E+01	-2.90924815526E+01	-5.88463551040E+01	-1.33167108559E+01	1.36811836995E+02
8.46090600000E+08	-1.54735404770E+01	1.73734654366E+02	2.15781107105E+01	9.63211402961E+01	-2.90839776995E+01	-5.95424370788E+01	-1.33273163582E+01	1.36452048186E+02
8.55090500000E+08	-1.54229307231E+01	1.73133611334E+02	2.15685259724E+01	9.54109381711E+01	-2.90908470819E+01	-6.02124299482E+01	-1.33486737026E+01	1.35885637335E+02
8.64090400000E+08	-1.53608349525E+01	1.72529641842E+02	2.15653532880E+01	9.45306955848E+01	-2.90813427205E+01	-6.09322022027E+01	-1.33566284124E+01	1.34915938628E+02
8.73090300000E+08	-1.53073164812E+01	1.71973110323E+02	2.15550904671E+01	9.36411660453E+01	-2.90919112546E+01	-6.14683301493E+01	-1.34023915186E+01	1.34357925082E+02
8.82090200000E+08	-1.52545937033E+01	1.71390719257E+02	2.15502007690E+01	9.27656450694E+01	-2.90972328552E+01	-6.21891501886E+01	-1.34571496361E+01	1.33962470923E+02
8.91090100000E+08	-1.52104571174E+01	1.70821227897E+02	2.15405839582E+01	9.18885837136E+01	-2.90951323193E+01	-6.28063746719E+01	-1.35342491404E+01	1.34014347521E+02
9.00090000000E+08	-1.51468189499E+01	1.70137437833E+02	2.15339129479E+01	9.09620662347E+01	-2.90864917463E+01	-6.34384257383E+01	-1.35413688050E+01	1.34134132880E+02
9.09089900000E+08	-1.51005654819E+01	1.69574793940E+02	2.15286132103E+01	9.01047079279E+01	-2.90843178215E+01	-6.41828735029E+01	-1.35181093496E+01	1.33992928091E+02
9.18089800000E+08	-1.50320175107E+01	1.68910546635E+02	2.15208172452E+01	8.92307920772E+01	-2.90820077727E+01	-6.48274678087E+01	-1.35276861753E+01	1.33604627896E+02
9.27089700000E+08	-1.49865482667E+01	1.68300920289E+02	2.15125092157E+01	8.83458881954E+01	-2.90958133323E+01	-6.55527524725E+01	-1.35867167689E+01	1.32913994429E+02
9.36089600000E+08	-1.49546946542E+01	1.67639775730E+02	2.14961077446E+01	8.74422419911E+01	-2.91024536810E+01	-6.61223869776E+01	-1.36671840742E+01	1.32238688785E+02
9.45089500000E+08	-1.48825216051E+01	1.67095094802E+02	2.15042047192E+01	8.65213370553E+01	-2.90925152875E+01	-6.67663076182E+01	-1.37517683865E+01	1.31715133815E+02
9.54089400000E+08	-1.48203232085E+01	1.66409771182E+02	2.14925806890E+01	8.56778739999E+01	-2.90979324736E+01	-6.74028356575E+01	-1.38123419667E+01	1.31506044128E+02
9.63089300000E+08	-1.47876586390E+01	1.65768198812E+02	2.14841226436E+01	8.47526786485E+01	-2.90845499867E+01	-6.81210673488E+01	-1.38240538940E+01	1.31327223901E+02
9.72089200000E+08	-1.47312732677E+01	1.65170172025E+02	2.14741319308E+01	8.39399998118E+01	-2.90899282706E+01	-6.87379371845E+01	-1.37860809246E+01	1.31441494741E+02
9.81089100000E+08	-1.46564914346E+01	1.64588540649E+02	2.14709313040E+01	8.29967303236E+01	-2.90895923012E+01	-6.94911095987E+01	-1.37603103432E+01	1.31066030526E+02
9.90089000000E+08	-1.46120978399E+01	1.63946180348E+02	2.14707411760E+01	8.21234366569E+01	-2.91029536844E+01	-7.01502675082E+01	-1.38113882874E+01	1.30566747856E+02
9.99088900000E+08	-1.45678278278E+01	1.63347359434E+02	2.14496609062E+01	8.12722600018E+01	-2.91036479270E+01	-7.08294619616E+01	-1.38768215973E+01	1.29967175649E+02
1.00808880000E+09	-1.45123200957E+01	1.62699894040E+02	2.14459777188E+01	8.03956897557E+01	-2.91108144033E+01	-7.14706759585E+01	-1.39940360143E+01	1.29527057443E+02
1.01708870000E+09	-1.44636292715E+01	1.62066492502E+02	2.14404507592E+01	7.95095399857E+01	-2.90979205751E+01	-7.20627373091E+01	-1.40630329025E+01	1.29334463157E+02
1.02608860000E+09	-1.44272920000E+01	1.61450916321E+02	2.14298795409E+01	7.86160460345E+01	-2.90999771858E+01	-7.27002940962E+01	-1.41157846940E+01	1.29210691542E+02
1.03508850000E+09	-1.43488920783E+01	1.60905506912E+02	2.14259002683E+01	7.77577152361E+01	-2.91022154434E+01	-7.33757500830E+01	-1.40990077275E+01	1.28864603162E+02
1.04408840000E+09	-1.43106750980E+01	1.60338590489E+02	2.14161026951E+01	7.68572566137E+01	-2.91010260956E+01	-7.40935972363E+01	-1.40687739681E+01	1.28544016636E+02
1.05308830000E+09	-1.42645408070E+01	1.59631262981E+02	2.14011166055E+01	7.60217221762E+01	-2.91053247417E+01	-7.47801847430E+01	-1.40621203056E+01	1.28013453135E+02
